!Murata Part Number:ERB32Q5C2A391JDX1
!These Parameters are Measured in Series Mode Connection
!       o--ll--o
!Port1            Port2
!       o------o
!Operation Temp=25[C], DC Bias Voltage=0[V]
!Freq. Start=100[MHz] Stop=6[GHz], 201[Steps]
# Hz S DB R 50
!Freq.[Hz] MagS11[dB] PhaseS11[DEG] MagS21[dB] PhaseS21[DEG] MagS12[dB] PhaseS12[DEG] MagS22[dB] PhaseS22[DEG]
100000000 -2.894E+01 -8.770E+01 -6.918E-03 2.047E+00 -6.918E-03 2.047E+00 -2.894E+01 -8.770E+01
102068271 -2.917E+01 -8.774E+01 -6.647E-03 1.995E+00 -6.647E-03 1.995E+00 -2.917E+01 -8.774E+01
104179319 -2.940E+01 -8.779E+01 -6.388E-03 1.943E+00 -6.388E-03 1.943E+00 -2.940E+01 -8.779E+01
106334029 -2.963E+01 -8.783E+01 -6.140E-03 1.891E+00 -6.140E-03 1.891E+00 -2.963E+01 -8.783E+01
108533304 -2.986E+01 -8.787E+01 -5.903E-03 1.841E+00 -5.903E-03 1.841E+00 -2.986E+01 -8.787E+01
110778067 -3.010E+01 -8.791E+01 -5.677E-03 1.791E+00 -5.677E-03 1.791E+00 -3.010E+01 -8.791E+01
113069257 -3.034E+01 -8.794E+01 -5.461E-03 1.743E+00 -5.461E-03 1.743E+00 -3.034E+01 -8.794E+01
115407835 -3.058E+01 -8.798E+01 -5.254E-03 1.695E+00 -5.254E-03 1.695E+00 -3.058E+01 -8.798E+01
117794781 -3.083E+01 -8.802E+01 -5.057E-03 1.647E+00 -5.057E-03 1.647E+00 -3.083E+01 -8.802E+01
120231096 -3.108E+01 -8.805E+01 -4.869E-03 1.600E+00 -4.869E-03 1.600E+00 -3.108E+01 -8.805E+01
122717800 -3.133E+01 -8.808E+01 -4.690E-03 1.554E+00 -4.690E-03 1.554E+00 -3.133E+01 -8.808E+01
125255937 -3.159E+01 -8.811E+01 -4.519E-03 1.509E+00 -4.519E-03 1.509E+00 -3.159E+01 -8.811E+01
127846568 -3.185E+01 -8.814E+01 -4.356E-03 1.464E+00 -4.356E-03 1.464E+00 -3.185E+01 -8.814E+01
130490781 -3.212E+01 -8.817E+01 -4.201E-03 1.420E+00 -4.201E-03 1.420E+00 -3.212E+01 -8.817E+01
133189684 -3.239E+01 -8.820E+01 -4.053E-03 1.376E+00 -4.053E-03 1.376E+00 -3.239E+01 -8.820E+01
135944407 -3.266E+01 -8.822E+01 -3.912E-03 1.333E+00 -3.912E-03 1.333E+00 -3.266E+01 -8.822E+01
138756105 -3.294E+01 -8.825E+01 -3.779E-03 1.291E+00 -3.779E-03 1.291E+00 -3.294E+01 -8.825E+01
141625957 -3.323E+01 -8.827E+01 -3.652E-03 1.249E+00 -3.652E-03 1.249E+00 -3.323E+01 -8.827E+01
144555165 -3.352E+01 -8.829E+01 -3.532E-03 1.208E+00 -3.532E-03 1.208E+00 -3.352E+01 -8.829E+01
147544957 -3.382E+01 -8.831E+01 -3.418E-03 1.167E+00 -3.418E-03 1.167E+00 -3.382E+01 -8.831E+01
150596585 -3.413E+01 -8.833E+01 -3.310E-03 1.126E+00 -3.310E-03 1.126E+00 -3.413E+01 -8.833E+01
153711330 -3.444E+01 -8.834E+01 -3.208E-03 1.086E+00 -3.208E-03 1.086E+00 -3.444E+01 -8.834E+01
156890497 -3.476E+01 -8.835E+01 -3.112E-03 1.047E+00 -3.112E-03 1.047E+00 -3.476E+01 -8.835E+01
160135417 -3.509E+01 -8.836E+01 -3.021E-03 1.008E+00 -3.021E-03 1.008E+00 -3.509E+01 -8.836E+01
163447450 -3.543E+01 -8.837E+01 -2.935E-03 9.693E-01 -2.935E-03 9.693E-01 -3.543E+01 -8.837E+01
166827986 -3.578E+01 -8.838E+01 -2.854E-03 9.311E-01 -2.854E-03 9.311E-01 -3.578E+01 -8.838E+01
170278440 -3.614E+01 -8.838E+01 -2.779E-03 8.933E-01 -2.779E-03 8.933E-01 -3.614E+01 -8.838E+01
173800259 -3.651E+01 -8.838E+01 -2.708E-03 8.558E-01 -2.708E-03 8.558E-01 -3.651E+01 -8.838E+01
177394918 -3.690E+01 -8.837E+01 -2.642E-03 8.187E-01 -2.642E-03 8.187E-01 -3.690E+01 -8.837E+01
181063925 -3.730E+01 -8.836E+01 -2.581E-03 7.820E-01 -2.581E-03 7.820E-01 -3.730E+01 -8.836E+01
184808817 -3.771E+01 -8.835E+01 -2.523E-03 7.455E-01 -2.523E-03 7.455E-01 -3.771E+01 -8.835E+01
188631164 -3.814E+01 -8.833E+01 -2.471E-03 7.094E-01 -2.471E-03 7.094E-01 -3.814E+01 -8.833E+01
192532566 -3.859E+01 -8.830E+01 -2.422E-03 6.736E-01 -2.422E-03 6.736E-01 -3.859E+01 -8.830E+01
196514661 -3.906E+01 -8.827E+01 -2.377E-03 6.380E-01 -2.377E-03 6.380E-01 -3.906E+01 -8.827E+01
200579116 -3.956E+01 -8.823E+01 -2.337E-03 6.027E-01 -2.337E-03 6.027E-01 -3.956E+01 -8.823E+01
204727635 -4.008E+01 -8.819E+01 -2.300E-03 5.677E-01 -2.300E-03 5.677E-01 -4.008E+01 -8.819E+01
208961956 -4.063E+01 -8.813E+01 -2.267E-03 5.328E-01 -2.267E-03 5.328E-01 -4.063E+01 -8.813E+01
213283855 -4.121E+01 -8.805E+01 -2.238E-03 4.982E-01 -2.238E-03 4.982E-01 -4.121E+01 -8.805E+01
217695142 -4.183E+01 -8.797E+01 -2.213E-03 4.638E-01 -2.213E-03 4.638E-01 -4.183E+01 -8.797E+01
222197667 -4.250E+01 -8.786E+01 -2.191E-03 4.296E-01 -2.191E-03 4.296E-01 -4.250E+01 -8.786E+01
226793316 -4.321E+01 -8.773E+01 -2.172E-03 3.956E-01 -2.172E-03 3.956E-01 -4.321E+01 -8.773E+01
231484015 -4.399E+01 -8.757E+01 -2.158E-03 3.617E-01 -2.158E-03 3.617E-01 -4.399E+01 -8.757E+01
236271731 -4.484E+01 -8.736E+01 -2.146E-03 3.280E-01 -2.146E-03 3.280E-01 -4.484E+01 -8.736E+01
241158469 -4.577E+01 -8.711E+01 -2.138E-03 2.944E-01 -2.138E-03 2.944E-01 -4.577E+01 -8.711E+01
246146279 -4.682E+01 -8.678E+01 -2.133E-03 2.609E-01 -2.133E-03 2.609E-01 -4.682E+01 -8.678E+01
251237250 -4.801E+01 -8.635E+01 -2.131E-03 2.275E-01 -2.131E-03 2.275E-01 -4.801E+01 -8.635E+01
256433516 -4.937E+01 -8.576E+01 -2.133E-03 1.942E-01 -2.133E-03 1.942E-01 -4.937E+01 -8.576E+01
261737255 -5.099E+01 -8.491E+01 -2.138E-03 1.610E-01 -2.138E-03 1.610E-01 -5.099E+01 -8.491E+01
267150690 -5.298E+01 -8.362E+01 -2.146E-03 1.278E-01 -2.146E-03 1.278E-01 -5.298E+01 -8.362E+01
272676089 -5.554E+01 -8.140E+01 -2.158E-03 9.468E-02 -2.158E-03 9.468E-02 -5.554E+01 -8.140E+01
278315768 -5.915E+01 -7.687E+01 -2.172E-03 6.157E-02 -2.172E-03 6.157E-02 -5.915E+01 -7.687E+01
284072092 -6.508E+01 -6.309E+01 -2.190E-03 2.848E-02 -2.190E-03 2.848E-02 -6.508E+01 -6.309E+01
289947471 -7.147E+01 1.758E+01 -2.211E-03 -4.623E-03 -2.211E-03 -4.623E-03 -7.147E+01 1.758E+01
295944369 -6.301E+01 6.864E+01 -2.235E-03 -3.774E-02 -2.235E-03 -3.774E-02 -6.301E+01 6.864E+01
302065300 -5.796E+01 7.807E+01 -2.263E-03 -7.089E-02 -2.263E-03 -7.089E-02 -5.796E+01 7.807E+01
308312827 -5.472E+01 8.168E+01 -2.294E-03 -1.041E-01 -2.294E-03 -1.041E-01 -5.472E+01 8.168E+01
314689571 -5.235E+01 8.355E+01 -2.328E-03 -1.374E-01 -2.328E-03 -1.374E-01 -5.235E+01 8.355E+01
321198203 -5.048E+01 8.469E+01 -2.365E-03 -1.707E-01 -2.365E-03 -1.707E-01 -5.048E+01 8.469E+01
327841451 -4.894E+01 8.545E+01 -2.406E-03 -2.041E-01 -2.406E-03 -2.041E-01 -4.894E+01 8.545E+01
334622099 -4.762E+01 8.599E+01 -2.451E-03 -2.377E-01 -2.451E-03 -2.377E-01 -4.762E+01 8.599E+01
341542989 -4.648E+01 8.639E+01 -2.498E-03 -2.714E-01 -2.498E-03 -2.714E-01 -4.648E+01 8.639E+01
348607022 -4.546E+01 8.669E+01 -2.550E-03 -3.052E-01 -2.550E-03 -3.052E-01 -4.546E+01 8.669E+01
355817159 -4.454E+01 8.693E+01 -2.605E-03 -3.392E-01 -2.605E-03 -3.392E-01 -4.454E+01 8.693E+01
363176420 -4.371E+01 8.712E+01 -2.664E-03 -3.734E-01 -2.664E-03 -3.734E-01 -4.371E+01 8.712E+01
370687892 -4.295E+01 8.727E+01 -2.727E-03 -4.077E-01 -2.727E-03 -4.077E-01 -4.295E+01 8.727E+01
378354720 -4.224E+01 8.739E+01 -2.794E-03 -4.423E-01 -2.794E-03 -4.423E-01 -4.224E+01 8.739E+01
386180120 -4.158E+01 8.749E+01 -2.864E-03 -4.771E-01 -2.864E-03 -4.771E-01 -4.158E+01 8.749E+01
394167369 -4.097E+01 8.758E+01 -2.940E-03 -5.122E-01 -2.940E-03 -5.122E-01 -4.097E+01 8.758E+01
402319817 -4.039E+01 8.764E+01 -3.019E-03 -5.476E-01 -3.019E-03 -5.476E-01 -4.039E+01 8.764E+01
410640879 -3.984E+01 8.770E+01 -3.103E-03 -5.832E-01 -3.103E-03 -5.832E-01 -3.984E+01 8.770E+01
419134044 -3.932E+01 8.774E+01 -3.192E-03 -6.192E-01 -3.192E-03 -6.192E-01 -3.932E+01 8.774E+01
427802870 -3.883E+01 8.778E+01 -3.286E-03 -6.555E-01 -3.286E-03 -6.555E-01 -3.883E+01 8.778E+01
436650991 -3.836E+01 8.781E+01 -3.386E-03 -6.922E-01 -3.386E-03 -6.922E-01 -3.836E+01 8.781E+01
445682115 -3.790E+01 8.783E+01 -3.490E-03 -7.292E-01 -3.490E-03 -7.292E-01 -3.790E+01 8.783E+01
454900027 -3.747E+01 8.784E+01 -3.601E-03 -7.667E-01 -3.601E-03 -7.667E-01 -3.747E+01 8.784E+01
464308590 -3.705E+01 8.785E+01 -3.718E-03 -8.046E-01 -3.718E-03 -8.046E-01 -3.705E+01 8.785E+01
473911748 -3.664E+01 8.786E+01 -3.842E-03 -8.430E-01 -3.842E-03 -8.430E-01 -3.664E+01 8.786E+01
483713526 -3.625E+01 8.786E+01 -3.973E-03 -8.820E-01 -3.973E-03 -8.820E-01 -3.625E+01 8.786E+01
493718030 -3.587E+01 8.785E+01 -4.111E-03 -9.214E-01 -4.111E-03 -9.214E-01 -3.587E+01 8.785E+01
503929455 -3.550E+01 8.785E+01 -4.258E-03 -9.615E-01 -4.258E-03 -9.615E-01 -3.550E+01 8.785E+01
514352080 -3.514E+01 8.783E+01 -4.414E-03 -1.002E+00 -4.414E-03 -1.002E+00 -3.514E+01 8.783E+01
524990272 -3.479E+01 8.782E+01 -4.580E-03 -1.044E+00 -4.580E-03 -1.044E+00 -3.479E+01 8.782E+01
535848492 -3.445E+01 8.780E+01 -4.758E-03 -1.086E+00 -4.758E-03 -1.086E+00 -3.445E+01 8.780E+01
546931288 -3.411E+01 8.778E+01 -4.948E-03 -1.129E+00 -4.948E-03 -1.129E+00 -3.411E+01 8.778E+01
558243307 -3.378E+01 8.775E+01 -5.153E-03 -1.173E+00 -5.153E-03 -1.173E+00 -3.378E+01 8.775E+01
569789289 -3.345E+01 8.772E+01 -5.374E-03 -1.218E+00 -5.374E-03 -1.218E+00 -3.345E+01 8.772E+01
581574074 -3.313E+01 8.769E+01 -5.616E-03 -1.264E+00 -5.616E-03 -1.264E+00 -3.313E+01 8.769E+01
593602599 -3.281E+01 8.765E+01 -5.881E-03 -1.311E+00 -5.881E-03 -1.311E+00 -3.281E+01 8.765E+01
605879907 -3.249E+01 8.760E+01 -6.175E-03 -1.360E+00 -6.175E-03 -1.360E+00 -3.249E+01 8.760E+01
618411143 -3.218E+01 8.755E+01 -6.505E-03 -1.410E+00 -6.505E-03 -1.410E+00 -3.218E+01 8.755E+01
631201559 -3.186E+01 8.749E+01 -6.882E-03 -1.462E+00 -6.882E-03 -1.462E+00 -3.186E+01 8.749E+01
644256515 -3.154E+01 8.742E+01 -7.320E-03 -1.517E+00 -7.320E-03 -1.517E+00 -3.154E+01 8.742E+01
657581483 -3.122E+01 8.733E+01 -7.844E-03 -1.575E+00 -7.844E-03 -1.575E+00 -3.122E+01 8.733E+01
671182047 -3.088E+01 8.722E+01 -8.490E-03 -1.637E+00 -8.490E-03 -1.637E+00 -3.088E+01 8.722E+01
685063908 -3.054E+01 8.708E+01 -9.320E-03 -1.703E+00 -9.320E-03 -1.703E+00 -3.054E+01 8.708E+01
699232883 -3.017E+01 8.689E+01 -1.044E-02 -1.777E+00 -1.044E-02 -1.777E+00 -3.017E+01 8.689E+01
713694911 -2.977E+01 8.662E+01 -1.208E-02 -1.861E+00 -1.208E-02 -1.861E+00 -2.977E+01 8.662E+01
728456053 -2.931E+01 8.619E+01 -1.468E-02 -1.961E+00 -1.468E-02 -1.961E+00 -2.931E+01 8.619E+01
743522495 -2.875E+01 8.545E+01 -1.940E-02 -2.090E+00 -1.940E-02 -2.090E+00 -2.875E+01 8.545E+01
758900552 -2.802E+01 8.393E+01 -2.975E-02 -2.272E+00 -2.975E-02 -2.272E+00 -2.802E+01 8.393E+01
774596669 -2.689E+01 7.987E+01 -6.062E-02 -2.569E+00 -6.062E-02 -2.569E+00 -2.689E+01 7.987E+01
790617424 -2.525E+01 6.341E+01 -2.042E-01 -2.868E+00 -2.042E-01 -2.868E+00 -2.525E+01 6.341E+01
806969532 -3.056E+01 3.061E+01 -2.234E-01 -8.872E-01 -2.234E-01 -8.872E-01 -3.056E+01 3.061E+01
823659845 -3.346E+01 7.008E+01 -6.135E-02 -1.153E+00 -6.135E-02 -1.153E+00 -3.346E+01 7.008E+01
840695360 -3.171E+01 8.186E+01 -2.910E-02 -1.478E+00 -2.910E-02 -1.478E+00 -3.171E+01 8.186E+01
858083214 -3.067E+01 8.478E+01 -1.945E-02 -1.675E+00 -1.945E-02 -1.675E+00 -3.067E+01 8.478E+01
875830697 -2.998E+01 8.584E+01 -1.563E-02 -1.816E+00 -1.563E-02 -1.816E+00 -2.998E+01 8.584E+01
893945246 -2.946E+01 8.631E+01 -1.390E-02 -1.928E+00 -1.390E-02 -1.928E+00 -2.946E+01 8.631E+01
912434452 -2.903E+01 8.654E+01 -1.311E-02 -2.025E+00 -1.311E-02 -2.025E+00 -2.903E+01 8.654E+01
931306065 -2.866E+01 8.666E+01 -1.279E-02 -2.113E+00 -1.279E-02 -2.113E+00 -2.866E+01 8.666E+01
950567995 -2.833E+01 8.671E+01 -1.276E-02 -2.196E+00 -1.276E-02 -2.196E+00 -2.833E+01 8.671E+01
970228313 -2.802E+01 8.672E+01 -1.290E-02 -2.276E+00 -1.290E-02 -2.276E+00 -2.802E+01 8.672E+01
990295260 -2.772E+01 8.671E+01 -1.317E-02 -2.355E+00 -1.317E-02 -2.355E+00 -2.772E+01 8.671E+01
1010777245 -2.744E+01 8.668E+01 -1.353E-02 -2.432E+00 -1.353E-02 -2.432E+00 -2.744E+01 8.668E+01
1031682854 -2.717E+01 8.664E+01 -1.398E-02 -2.510E+00 -1.398E-02 -2.510E+00 -2.717E+01 8.664E+01
1053020847 -2.690E+01 8.659E+01 -1.451E-02 -2.588E+00 -1.451E-02 -2.588E+00 -2.690E+01 8.659E+01
1074800167 -2.664E+01 8.653E+01 -1.511E-02 -2.668E+00 -1.511E-02 -2.668E+00 -2.664E+01 8.653E+01
1097029943 -2.638E+01 8.645E+01 -1.581E-02 -2.750E+00 -1.581E-02 -2.750E+00 -2.638E+01 8.645E+01
1119719490 -2.612E+01 8.637E+01 -1.660E-02 -2.834E+00 -1.660E-02 -2.834E+00 -2.612E+01 8.637E+01
1142878319 -2.585E+01 8.628E+01 -1.751E-02 -2.921E+00 -1.751E-02 -2.921E+00 -2.585E+01 8.628E+01
1166516135 -2.558E+01 8.616E+01 -1.859E-02 -3.013E+00 -1.859E-02 -3.013E+00 -2.558E+01 8.616E+01
1190642845 -2.531E+01 8.603E+01 -1.990E-02 -3.111E+00 -1.990E-02 -3.111E+00 -2.531E+01 8.603E+01
1215268561 -2.502E+01 8.586E+01 -2.156E-02 -3.217E+00 -2.156E-02 -3.217E+00 -2.502E+01 8.586E+01
1240403603 -2.470E+01 8.564E+01 -2.378E-02 -3.335E+00 -2.378E-02 -3.335E+00 -2.470E+01 8.564E+01
1266058506 -2.436E+01 8.533E+01 -2.699E-02 -3.470E+00 -2.699E-02 -3.470E+00 -2.436E+01 8.533E+01
1292244021 -2.395E+01 8.484E+01 -3.219E-02 -3.635E+00 -3.219E-02 -3.635E+00 -2.395E+01 8.484E+01
1318971124 -2.344E+01 8.395E+01 -4.211E-02 -3.855E+00 -4.211E-02 -3.855E+00 -2.344E+01 8.395E+01
1346251016 -2.271E+01 8.193E+01 -6.655E-02 -4.190E+00 -6.655E-02 -4.190E+00 -2.271E+01 8.193E+01
1374095129 -2.148E+01 7.511E+01 -1.602E-01 -4.762E+00 -1.602E-01 -4.762E+00 -2.148E+01 7.511E+01
1402515135 -2.200E+01 4.362E+01 -4.997E-01 -3.327E+00 -4.997E-01 -3.327E+00 -2.200E+01 4.362E+01
1431522943 -2.797E+01 6.530E+01 -1.404E-01 -2.115E+00 -1.404E-01 -2.115E+00 -2.797E+01 6.530E+01
1461130711 -2.632E+01 8.098E+01 -5.601E-02 -2.751E+00 -5.601E-02 -2.751E+00 -2.632E+01 8.098E+01
1491350847 -2.531E+01 8.394E+01 -3.717E-02 -3.108E+00 -3.717E-02 -3.108E+00 -2.531E+01 8.394E+01
1522196018 -2.468E+01 8.482E+01 -3.107E-02 -3.343E+00 -3.107E-02 -3.343E+00 -2.468E+01 8.482E+01
1553679150 -2.423E+01 8.515E+01 -2.884E-02 -3.522E+00 -2.884E-02 -3.522E+00 -2.423E+01 8.515E+01
1585813439 -2.386E+01 8.527E+01 -2.816E-02 -3.674E+00 -2.816E-02 -3.674E+00 -2.386E+01 8.527E+01
1618612352 -2.355E+01 8.530E+01 -2.822E-02 -3.809E+00 -2.822E-02 -3.809E+00 -2.355E+01 8.530E+01
1652089635 -2.327E+01 8.528E+01 -2.869E-02 -3.936E+00 -2.869E-02 -3.936E+00 -2.327E+01 8.528E+01
1686259319 -2.301E+01 8.524E+01 -2.940E-02 -4.056E+00 -2.940E-02 -4.056E+00 -2.301E+01 8.524E+01
1721135724 -2.276E+01 8.517E+01 -3.028E-02 -4.173E+00 -3.028E-02 -4.173E+00 -2.276E+01 8.517E+01
1756733468 -2.253E+01 8.510E+01 -3.129E-02 -4.287E+00 -3.129E-02 -4.287E+00 -2.253E+01 8.510E+01
1793067470 -2.230E+01 8.502E+01 -3.239E-02 -4.401E+00 -3.239E-02 -4.401E+00 -2.230E+01 8.502E+01
1830152957 -2.208E+01 8.494E+01 -3.358E-02 -4.514E+00 -3.358E-02 -4.514E+00 -2.208E+01 8.494E+01
1868005472 -2.186E+01 8.484E+01 -3.484E-02 -4.628E+00 -3.484E-02 -4.628E+00 -2.186E+01 8.484E+01
1906640879 -2.165E+01 8.475E+01 -3.617E-02 -4.741E+00 -3.617E-02 -4.741E+00 -2.165E+01 8.475E+01
1946075372 -2.145E+01 8.465E+01 -3.757E-02 -4.856E+00 -3.757E-02 -4.856E+00 -2.145E+01 8.465E+01
1986325476 -2.124E+01 8.455E+01 -3.904E-02 -4.972E+00 -3.904E-02 -4.972E+00 -2.124E+01 8.455E+01
2027408062 -2.104E+01 8.445E+01 -4.058E-02 -5.089E+00 -4.058E-02 -5.089E+00 -2.104E+01 8.445E+01
2069340346 -2.084E+01 8.434E+01 -4.218E-02 -5.207E+00 -4.218E-02 -5.207E+00 -2.084E+01 8.434E+01
2112139904 -2.064E+01 8.423E+01 -4.386E-02 -5.328E+00 -4.386E-02 -5.328E+00 -2.064E+01 8.423E+01
2155824672 -2.045E+01 8.412E+01 -4.560E-02 -5.449E+00 -4.560E-02 -5.449E+00 -2.045E+01 8.412E+01
2200412959 -2.025E+01 8.400E+01 -4.742E-02 -5.573E+00 -4.742E-02 -5.573E+00 -2.025E+01 8.400E+01
2245923453 -2.006E+01 8.389E+01 -4.931E-02 -5.698E+00 -4.931E-02 -5.698E+00 -2.006E+01 8.389E+01
2292375227 -1.987E+01 8.377E+01 -5.129E-02 -5.826E+00 -5.129E-02 -5.826E+00 -1.987E+01 8.377E+01
2339787750 -1.968E+01 8.364E+01 -5.334E-02 -5.956E+00 -5.334E-02 -5.956E+00 -1.968E+01 8.364E+01
2388180891 -1.949E+01 8.352E+01 -5.548E-02 -6.088E+00 -5.548E-02 -6.088E+00 -1.949E+01 8.352E+01
2437574934 -1.930E+01 8.339E+01 -5.770E-02 -6.222E+00 -5.770E-02 -6.222E+00 -1.930E+01 8.339E+01
2487990579 -1.911E+01 8.326E+01 -6.002E-02 -6.358E+00 -6.002E-02 -6.358E+00 -1.911E+01 8.326E+01
2539448956 -1.893E+01 8.313E+01 -6.242E-02 -6.497E+00 -6.242E-02 -6.497E+00 -1.893E+01 8.313E+01
2591971632 -1.874E+01 8.299E+01 -6.493E-02 -6.638E+00 -6.493E-02 -6.638E+00 -1.874E+01 8.299E+01
2645580619 -1.856E+01 8.285E+01 -6.754E-02 -6.782E+00 -6.754E-02 -6.782E+00 -1.856E+01 8.285E+01
2700298384 -1.837E+01 8.271E+01 -7.025E-02 -6.929E+00 -7.025E-02 -6.929E+00 -1.837E+01 8.271E+01
2756147861 -1.819E+01 8.257E+01 -7.308E-02 -7.078E+00 -7.308E-02 -7.078E+00 -1.819E+01 8.257E+01
2813152457 -1.800E+01 8.242E+01 -7.602E-02 -7.230E+00 -7.602E-02 -7.230E+00 -1.800E+01 8.242E+01
2871336061 -1.782E+01 8.227E+01 -7.907E-02 -7.385E+00 -7.907E-02 -7.385E+00 -1.782E+01 8.227E+01
2930723060 -1.764E+01 8.212E+01 -8.225E-02 -7.542E+00 -8.225E-02 -7.542E+00 -1.764E+01 8.212E+01
2991338343 -1.746E+01 8.196E+01 -8.556E-02 -7.703E+00 -8.556E-02 -7.703E+00 -1.746E+01 8.196E+01
3053207314 -1.727E+01 8.181E+01 -8.901E-02 -7.866E+00 -8.901E-02 -7.866E+00 -1.727E+01 8.181E+01
3116355903 -1.709E+01 8.164E+01 -9.259E-02 -8.033E+00 -9.259E-02 -8.033E+00 -1.709E+01 8.164E+01
3180810575 -1.691E+01 8.148E+01 -9.631E-02 -8.203E+00 -9.631E-02 -8.203E+00 -1.691E+01 8.148E+01
3246598344 -1.673E+01 8.131E+01 -1.002E-01 -8.376E+00 -1.002E-01 -8.376E+00 -1.673E+01 8.131E+01
3313746783 -1.655E+01 8.114E+01 -1.042E-01 -8.552E+00 -1.042E-01 -8.552E+00 -1.655E+01 8.114E+01
3382284032 -1.637E+01 8.096E+01 -1.084E-01 -8.731E+00 -1.084E-01 -8.731E+00 -1.637E+01 8.096E+01
3452238818 -1.620E+01 8.078E+01 -1.128E-01 -8.914E+00 -1.128E-01 -8.914E+00 -1.620E+01 8.078E+01
3523640458 -1.602E+01 8.060E+01 -1.173E-01 -9.100E+00 -1.173E-01 -9.100E+00 -1.602E+01 8.060E+01
3596518877 -1.584E+01 8.041E+01 -1.220E-01 -9.290E+00 -1.220E-01 -9.290E+00 -1.584E+01 8.041E+01
3670904619 -1.566E+01 8.022E+01 -1.270E-01 -9.484E+00 -1.270E-01 -9.484E+00 -1.566E+01 8.022E+01
3746828859 -1.549E+01 8.003E+01 -1.321E-01 -9.681E+00 -1.321E-01 -9.681E+00 -1.549E+01 8.003E+01
3824323418 -1.531E+01 7.983E+01 -1.374E-01 -9.882E+00 -1.374E-01 -9.882E+00 -1.531E+01 7.983E+01
3903420774 -1.513E+01 7.963E+01 -1.429E-01 -1.009E+01 -1.429E-01 -1.009E+01 -1.513E+01 7.963E+01
3984154077 -1.496E+01 7.943E+01 -1.487E-01 -1.029E+01 -1.487E-01 -1.029E+01 -1.496E+01 7.943E+01
4066557164 -1.478E+01 7.922E+01 -1.546E-01 -1.051E+01 -1.546E-01 -1.051E+01 -1.478E+01 7.922E+01
4150664569 -1.461E+01 7.900E+01 -1.609E-01 -1.072E+01 -1.609E-01 -1.072E+01 -1.461E+01 7.900E+01
4236511544 -1.443E+01 7.879E+01 -1.673E-01 -1.094E+01 -1.673E-01 -1.094E+01 -1.443E+01 7.879E+01
4324134065 -1.426E+01 7.857E+01 -1.740E-01 -1.117E+01 -1.740E-01 -1.117E+01 -1.426E+01 7.857E+01
4413568858 -1.408E+01 7.834E+01 -1.810E-01 -1.140E+01 -1.810E-01 -1.140E+01 -1.408E+01 7.834E+01
4504853404 -1.391E+01 7.811E+01 -1.883E-01 -1.163E+01 -1.883E-01 -1.163E+01 -1.391E+01 7.811E+01
4598025962 -1.374E+01 7.788E+01 -1.959E-01 -1.187E+01 -1.959E-01 -1.187E+01 -1.374E+01 7.788E+01
4693125580 -1.356E+01 7.764E+01 -2.037E-01 -1.211E+01 -2.037E-01 -1.211E+01 -1.356E+01 7.764E+01
4790192116 -1.339E+01 7.739E+01 -2.119E-01 -1.236E+01 -2.119E-01 -1.236E+01 -1.339E+01 7.739E+01
4889266250 -1.322E+01 7.715E+01 -2.204E-01 -1.261E+01 -2.204E-01 -1.261E+01 -1.322E+01 7.715E+01
4990389505 -1.305E+01 7.689E+01 -2.292E-01 -1.286E+01 -2.292E-01 -1.286E+01 -1.305E+01 7.689E+01
5093604263 -1.288E+01 7.664E+01 -2.384E-01 -1.312E+01 -2.384E-01 -1.312E+01 -1.288E+01 7.664E+01
5198953782 -1.271E+01 7.637E+01 -2.479E-01 -1.339E+01 -2.479E-01 -1.339E+01 -1.271E+01 7.637E+01
5306482213 -1.254E+01 7.611E+01 -2.578E-01 -1.366E+01 -2.578E-01 -1.366E+01 -1.254E+01 7.611E+01
5416234624 -1.237E+01 7.584E+01 -2.681E-01 -1.393E+01 -2.681E-01 -1.393E+01 -1.237E+01 7.584E+01
5528257011 -1.220E+01 7.556E+01 -2.788E-01 -1.421E+01 -2.788E-01 -1.421E+01 -1.220E+01 7.556E+01
5642596324 -1.203E+01 7.528E+01 -2.899E-01 -1.449E+01 -2.899E-01 -1.449E+01 -1.203E+01 7.528E+01
5759300484 -1.186E+01 7.499E+01 -3.014E-01 -1.478E+01 -3.014E-01 -1.478E+01 -1.186E+01 7.499E+01
5878418402 -1.170E+01 7.470E+01 -3.134E-01 -1.508E+01 -3.134E-01 -1.508E+01 -1.170E+01 7.470E+01
6000000000 -1.153E+01 7.440E+01 -3.259E-01 -1.538E+01 -3.259E-01 -1.538E+01 -1.153E+01 7.440E+01
