!Murata Part Number:GRM1555C1H821JA01
!These Parameters are Measured in Series Mode Connection
!       o--ll--o
!Port1            Port2
!       o------o
!Operation Temp=25[C], DC Bias Voltage=0[V]
!Freq. Start=300[kHz] Stop=6[GHz], 201[Steps]
# Hz S DB R 50
!Freq.[Hz] MagS11[dB] PhaseS11[DEG] MagS21[dB] PhaseS21[DEG] MagS12[dB] PhaseS12[DEG] MagS22[dB] PhaseS22[DEG]
300000 -1.029E-01 -8.786E+00 -1.632E+01 8.120E+01 -1.632E+01 8.120E+01 -1.029E-01 -8.786E+00
315229 -1.135E-01 -9.225E+00 -1.590E+01 8.076E+01 -1.590E+01 8.076E+01 -1.135E-01 -9.225E+00
331231 -1.251E-01 -9.684E+00 -1.548E+01 8.030E+01 -1.548E+01 8.030E+01 -1.251E-01 -9.684E+00
348046 -1.379E-01 -1.017E+01 -1.507E+01 7.982E+01 -1.507E+01 7.982E+01 -1.379E-01 -1.017E+01
365714 -1.520E-01 -1.067E+01 -1.465E+01 7.931E+01 -1.465E+01 7.931E+01 -1.520E-01 -1.067E+01
384279 -1.675E-01 -1.120E+01 -1.423E+01 7.878E+01 -1.423E+01 7.878E+01 -1.675E-01 -1.120E+01
403787 -1.846E-01 -1.175E+01 -1.382E+01 7.823E+01 -1.382E+01 7.823E+01 -1.846E-01 -1.175E+01
424285 -2.033E-01 -1.233E+01 -1.341E+01 7.765E+01 -1.341E+01 7.765E+01 -2.033E-01 -1.233E+01
445823 -2.239E-01 -1.294E+01 -1.300E+01 7.705E+01 -1.300E+01 7.705E+01 -2.239E-01 -1.294E+01
468455 -2.465E-01 -1.357E+01 -1.259E+01 7.641E+01 -1.259E+01 7.641E+01 -2.465E-01 -1.357E+01
492235 -2.714E-01 -1.423E+01 -1.219E+01 7.575E+01 -1.219E+01 7.575E+01 -2.714E-01 -1.423E+01
517223 -2.986E-01 -1.492E+01 -1.179E+01 7.506E+01 -1.179E+01 7.506E+01 -2.986E-01 -1.492E+01
543479 -3.286E-01 -1.564E+01 -1.138E+01 7.434E+01 -1.138E+01 7.434E+01 -3.286E-01 -1.564E+01
571068 -3.613E-01 -1.639E+01 -1.099E+01 7.359E+01 -1.099E+01 7.359E+01 -3.613E-01 -1.639E+01
600058 -3.972E-01 -1.718E+01 -1.059E+01 7.280E+01 -1.059E+01 7.280E+01 -3.972E-01 -1.718E+01
630519 -4.365E-01 -1.800E+01 -1.020E+01 7.199E+01 -1.020E+01 7.199E+01 -4.365E-01 -1.800E+01
662527 -4.795E-01 -1.885E+01 -9.816E+00 7.114E+01 -9.816E+00 7.114E+01 -4.795E-01 -1.885E+01
696160 -5.265E-01 -1.973E+01 -9.432E+00 7.025E+01 -9.432E+00 7.025E+01 -5.265E-01 -1.973E+01
731499 -5.778E-01 -2.065E+01 -9.054E+00 6.933E+01 -9.054E+00 6.933E+01 -5.778E-01 -2.065E+01
768633 -6.337E-01 -2.160E+01 -8.679E+00 6.838E+01 -8.679E+00 6.838E+01 -6.337E-01 -2.160E+01
807652 -6.946E-01 -2.259E+01 -8.310E+00 6.739E+01 -8.310E+00 6.739E+01 -6.946E-01 -2.259E+01
848652 -7.609E-01 -2.361E+01 -7.946E+00 6.637E+01 -7.946E+00 6.637E+01 -7.609E-01 -2.361E+01
891732 -8.329E-01 -2.467E+01 -7.588E+00 6.531E+01 -7.588E+00 6.531E+01 -8.329E-01 -2.467E+01
937000 -9.110E-01 -2.577E+01 -7.236E+00 6.421E+01 -7.236E+00 6.421E+01 -9.110E-01 -2.577E+01
984566 -9.957E-01 -2.689E+01 -6.891E+00 6.309E+01 -6.891E+00 6.309E+01 -9.957E-01 -2.689E+01
1034546 -1.087E+00 -2.805E+01 -6.552E+00 6.193E+01 -6.552E+00 6.193E+01 -1.087E+00 -2.805E+01
1087064 -1.186E+00 -2.925E+01 -6.221E+00 6.073E+01 -6.221E+00 6.073E+01 -1.186E+00 -2.925E+01
1142248 -1.293E+00 -3.047E+01 -5.898E+00 5.951E+01 -5.898E+00 5.951E+01 -1.293E+00 -3.047E+01
1200233 -1.408E+00 -3.173E+01 -5.582E+00 5.825E+01 -5.582E+00 5.825E+01 -1.408E+00 -3.173E+01
1261161 -1.531E+00 -3.301E+01 -5.276E+00 5.697E+01 -5.276E+00 5.697E+01 -1.531E+00 -3.301E+01
1325183 -1.663E+00 -3.432E+01 -4.978E+00 5.566E+01 -4.978E+00 5.566E+01 -1.663E+00 -3.432E+01
1392454 -1.805E+00 -3.565E+01 -4.689E+00 5.433E+01 -4.689E+00 5.433E+01 -1.805E+00 -3.565E+01
1463141 -1.956E+00 -3.700E+01 -4.410E+00 5.298E+01 -4.410E+00 5.298E+01 -1.956E+00 -3.700E+01
1537415 -2.117E+00 -3.838E+01 -4.141E+00 5.160E+01 -4.141E+00 5.160E+01 -2.117E+00 -3.838E+01
1615461 -2.288E+00 -3.976E+01 -3.882E+00 5.022E+01 -3.882E+00 5.022E+01 -2.288E+00 -3.976E+01
1697468 -2.469E+00 -4.116E+01 -3.633E+00 4.881E+01 -3.633E+00 4.881E+01 -2.469E+00 -4.116E+01
1783638 -2.661E+00 -4.257E+01 -3.394E+00 4.741E+01 -3.394E+00 4.741E+01 -2.661E+00 -4.257E+01
1874182 -2.863E+00 -4.399E+01 -3.166E+00 4.599E+01 -3.166E+00 4.599E+01 -2.863E+00 -4.399E+01
1969323 -3.076E+00 -4.541E+01 -2.949E+00 4.457E+01 -2.949E+00 4.457E+01 -3.076E+00 -4.541E+01
2069294 -3.299E+00 -4.682E+01 -2.742E+00 4.315E+01 -2.742E+00 4.315E+01 -3.299E+00 -4.682E+01
2174339 -3.533E+00 -4.824E+01 -2.546E+00 4.174E+01 -2.546E+00 4.174E+01 -3.533E+00 -4.824E+01
2284717 -3.778E+00 -4.964E+01 -2.361E+00 4.034E+01 -2.361E+00 4.034E+01 -3.778E+00 -4.964E+01
2400698 -4.033E+00 -5.103E+01 -2.186E+00 3.894E+01 -2.186E+00 3.894E+01 -4.033E+00 -5.103E+01
2522567 -4.298E+00 -5.241E+01 -2.021E+00 3.756E+01 -2.021E+00 3.756E+01 -4.298E+00 -5.241E+01
2650622 -4.574E+00 -5.377E+01 -1.866E+00 3.620E+01 -1.866E+00 3.620E+01 -4.574E+00 -5.377E+01
2785178 -4.858E+00 -5.511E+01 -1.721E+00 3.486E+01 -1.721E+00 3.486E+01 -4.858E+00 -5.511E+01
2926565 -5.153E+00 -5.643E+01 -1.585E+00 3.354E+01 -1.585E+00 3.354E+01 -5.153E+00 -5.643E+01
3075129 -5.456E+00 -5.773E+01 -1.458E+00 3.225E+01 -1.458E+00 3.225E+01 -5.456E+00 -5.773E+01
3231234 -5.768E+00 -5.899E+01 -1.339E+00 3.098E+01 -1.339E+00 3.098E+01 -5.768E+00 -5.899E+01
3395264 -6.088E+00 -6.023E+01 -1.229E+00 2.974E+01 -1.229E+00 2.974E+01 -6.088E+00 -6.023E+01
3567621 -6.416E+00 -6.144E+01 -1.127E+00 2.854E+01 -1.127E+00 2.854E+01 -6.416E+00 -6.144E+01
3748728 -6.752E+00 -6.261E+01 -1.033E+00 2.736E+01 -1.033E+00 2.736E+01 -6.752E+00 -6.261E+01
3939028 -7.095E+00 -6.375E+01 -9.454E-01 2.622E+01 -9.454E-01 2.622E+01 -7.095E+00 -6.375E+01
4138988 -7.445E+00 -6.486E+01 -8.646E-01 2.511E+01 -8.646E-01 2.511E+01 -7.445E+00 -6.486E+01
4349100 -7.800E+00 -6.593E+01 -7.902E-01 2.404E+01 -7.902E-01 2.404E+01 -7.800E+00 -6.593E+01
4569877 -8.162E+00 -6.697E+01 -7.216E-01 2.300E+01 -7.216E-01 2.300E+01 -8.162E+00 -6.697E+01
4801862 -8.530E+00 -6.797E+01 -6.585E-01 2.200E+01 -6.585E-01 2.200E+01 -8.530E+00 -6.797E+01
5045623 -8.902E+00 -6.894E+01 -6.006E-01 2.103E+01 -6.006E-01 2.103E+01 -8.902E+00 -6.894E+01
5301759 -9.279E+00 -6.987E+01 -5.475E-01 2.010E+01 -5.475E-01 2.010E+01 -9.279E+00 -6.987E+01
5570897 -9.661E+00 -7.077E+01 -4.989E-01 1.920E+01 -4.989E-01 1.920E+01 -9.661E+00 -7.077E+01
5853697 -1.005E+01 -7.163E+01 -4.543E-01 1.833E+01 -4.543E-01 1.833E+01 -1.005E+01 -7.163E+01
6150854 -1.044E+01 -7.246E+01 -4.135E-01 1.750E+01 -4.135E-01 1.750E+01 -1.044E+01 -7.246E+01
6463095 -1.083E+01 -7.326E+01 -3.763E-01 1.670E+01 -3.763E-01 1.670E+01 -1.083E+01 -7.326E+01
6791187 -1.123E+01 -7.402E+01 -3.423E-01 1.594E+01 -3.423E-01 1.594E+01 -1.123E+01 -7.402E+01
7135934 -1.163E+01 -7.475E+01 -3.113E-01 1.520E+01 -3.113E-01 1.520E+01 -1.163E+01 -7.475E+01
7498182 -1.203E+01 -7.545E+01 -2.830E-01 1.450E+01 -2.830E-01 1.450E+01 -1.203E+01 -7.545E+01
7878820 -1.243E+01 -7.613E+01 -2.572E-01 1.382E+01 -2.572E-01 1.382E+01 -1.243E+01 -7.613E+01
8278779 -1.284E+01 -7.677E+01 -2.337E-01 1.318E+01 -2.337E-01 1.318E+01 -1.284E+01 -7.677E+01
8699043 -1.325E+01 -7.738E+01 -2.123E-01 1.256E+01 -2.123E-01 1.256E+01 -1.325E+01 -7.738E+01
9140640 -1.366E+01 -7.797E+01 -1.928E-01 1.197E+01 -1.928E-01 1.197E+01 -1.366E+01 -7.797E+01
9604655 -1.408E+01 -7.853E+01 -1.751E-01 1.141E+01 -1.751E-01 1.141E+01 -1.408E+01 -7.853E+01
10092225 -1.449E+01 -7.907E+01 -1.591E-01 1.087E+01 -1.591E-01 1.087E+01 -1.449E+01 -7.907E+01
10604545 -1.491E+01 -7.958E+01 -1.444E-01 1.035E+01 -1.444E-01 1.035E+01 -1.491E+01 -7.958E+01
11142874 -1.533E+01 -8.007E+01 -1.312E-01 9.861E+00 -1.312E-01 9.861E+00 -1.533E+01 -8.007E+01
11708529 -1.575E+01 -8.053E+01 -1.191E-01 9.392E+00 -1.191E-01 9.392E+00 -1.575E+01 -8.053E+01
12302900 -1.617E+01 -8.098E+01 -1.082E-01 8.944E+00 -1.082E-01 8.944E+00 -1.617E+01 -8.098E+01
12927444 -1.659E+01 -8.140E+01 -9.821E-02 8.516E+00 -9.821E-02 8.516E+00 -1.659E+01 -8.140E+01
13583691 -1.701E+01 -8.180E+01 -8.919E-02 8.108E+00 -8.919E-02 8.108E+00 -1.701E+01 -8.180E+01
14273253 -1.744E+01 -8.219E+01 -8.101E-02 7.719E+00 -8.101E-02 7.719E+00 -1.744E+01 -8.219E+01
14997819 -1.786E+01 -8.255E+01 -7.360E-02 7.348E+00 -7.360E-02 7.348E+00 -1.786E+01 -8.255E+01
15759167 -1.829E+01 -8.290E+01 -6.687E-02 6.994E+00 -6.687E-02 6.994E+00 -1.829E+01 -8.290E+01
16559164 -1.872E+01 -8.323E+01 -6.077E-02 6.657E+00 -6.077E-02 6.657E+00 -1.872E+01 -8.323E+01
17399772 -1.914E+01 -8.354E+01 -5.525E-02 6.335E+00 -5.525E-02 6.335E+00 -1.914E+01 -8.354E+01
18283052 -1.957E+01 -8.384E+01 -5.024E-02 6.029E+00 -5.024E-02 6.029E+00 -1.957E+01 -8.384E+01
19211172 -2.000E+01 -8.413E+01 -4.570E-02 5.737E+00 -4.570E-02 5.737E+00 -2.000E+01 -8.413E+01
20186406 -2.043E+01 -8.440E+01 -4.159E-02 5.458E+00 -4.159E-02 5.458E+00 -2.043E+01 -8.440E+01
21211147 -2.087E+01 -8.465E+01 -3.788E-02 5.193E+00 -3.788E-02 5.193E+00 -2.087E+01 -8.465E+01
22287908 -2.130E+01 -8.489E+01 -3.451E-02 4.940E+00 -3.451E-02 4.940E+00 -2.130E+01 -8.489E+01
23419329 -2.173E+01 -8.512E+01 -3.146E-02 4.699E+00 -3.146E-02 4.699E+00 -2.173E+01 -8.512E+01
24608186 -2.217E+01 -8.534E+01 -2.871E-02 4.469E+00 -2.871E-02 4.469E+00 -2.217E+01 -8.534E+01
25857394 -2.260E+01 -8.555E+01 -2.621E-02 4.250E+00 -2.621E-02 4.250E+00 -2.260E+01 -8.555E+01
27170017 -2.304E+01 -8.574E+01 -2.396E-02 4.041E+00 -2.396E-02 4.041E+00 -2.304E+01 -8.574E+01
28549273 -2.348E+01 -8.592E+01 -2.192E-02 3.842E+00 -2.192E-02 3.842E+00 -2.348E+01 -8.592E+01
29998546 -2.392E+01 -8.610E+01 -2.009E-02 3.652E+00 -2.009E-02 3.652E+00 -2.392E+01 -8.610E+01
31521389 -2.436E+01 -8.626E+01 -1.842E-02 3.471E+00 -1.842E-02 3.471E+00 -2.436E+01 -8.626E+01
33121539 -2.480E+01 -8.641E+01 -1.693E-02 3.299E+00 -1.693E-02 3.299E+00 -2.480E+01 -8.641E+01
34802918 -2.524E+01 -8.656E+01 -1.558E-02 3.135E+00 -1.558E-02 3.135E+00 -2.524E+01 -8.656E+01
36569650 -2.569E+01 -8.669E+01 -1.436E-02 2.978E+00 -1.436E-02 2.978E+00 -2.569E+01 -8.669E+01
38426068 -2.614E+01 -8.681E+01 -1.326E-02 2.828E+00 -1.326E-02 2.828E+00 -2.614E+01 -8.681E+01
40376726 -2.658E+01 -8.693E+01 -1.227E-02 2.686E+00 -1.227E-02 2.686E+00 -2.658E+01 -8.693E+01
42426407 -2.704E+01 -8.704E+01 -1.139E-02 2.550E+00 -1.139E-02 2.550E+00 -2.704E+01 -8.704E+01
44580137 -2.749E+01 -8.714E+01 -1.059E-02 2.420E+00 -1.059E-02 2.420E+00 -2.749E+01 -8.714E+01
46843200 -2.795E+01 -8.723E+01 -9.879E-03 2.296E+00 -9.879E-03 2.296E+00 -2.795E+01 -8.723E+01
49221144 -2.841E+01 -8.731E+01 -9.241E-03 2.177E+00 -9.241E-03 2.177E+00 -2.841E+01 -8.731E+01
51719802 -2.887E+01 -8.738E+01 -8.671E-03 2.064E+00 -8.671E-03 2.064E+00 -2.887E+01 -8.738E+01
54345301 -2.933E+01 -8.745E+01 -8.163E-03 1.956E+00 -8.163E-03 1.956E+00 -2.933E+01 -8.745E+01
57104082 -2.981E+01 -8.750E+01 -7.711E-03 1.853E+00 -7.711E-03 1.853E+00 -2.981E+01 -8.750E+01
60002909 -3.028E+01 -8.755E+01 -7.310E-03 1.755E+00 -7.310E-03 1.755E+00 -3.028E+01 -8.755E+01
63048891 -3.076E+01 -8.759E+01 -6.956E-03 1.660E+00 -6.956E-03 1.660E+00 -3.076E+01 -8.759E+01
66249500 -3.125E+01 -8.762E+01 -6.645E-03 1.570E+00 -6.645E-03 1.570E+00 -3.125E+01 -8.762E+01
69612584 -3.174E+01 -8.764E+01 -6.372E-03 1.483E+00 -6.372E-03 1.483E+00 -3.174E+01 -8.764E+01
73146391 -3.224E+01 -8.764E+01 -6.135E-03 1.400E+00 -6.135E-03 1.400E+00 -3.224E+01 -8.764E+01
76859588 -3.274E+01 -8.764E+01 -5.930E-03 1.321E+00 -5.930E-03 1.321E+00 -3.274E+01 -8.764E+01
80761282 -3.326E+01 -8.763E+01 -5.755E-03 1.245E+00 -5.755E-03 1.245E+00 -3.326E+01 -8.763E+01
84861040 -3.378E+01 -8.761E+01 -5.607E-03 1.172E+00 -5.607E-03 1.172E+00 -3.378E+01 -8.761E+01
89168919 -3.432E+01 -8.757E+01 -5.484E-03 1.101E+00 -5.484E-03 1.101E+00 -3.432E+01 -8.757E+01
93695483 -3.487E+01 -8.752E+01 -5.384E-03 1.034E+00 -5.384E-03 1.034E+00 -3.487E+01 -8.752E+01
98451832 -3.543E+01 -8.745E+01 -5.305E-03 9.688E-01 -5.305E-03 9.688E-01 -3.543E+01 -8.745E+01
103449632 -3.601E+01 -8.736E+01 -5.245E-03 9.061E-01 -5.245E-03 9.061E-01 -3.601E+01 -8.736E+01
108701141 -3.661E+01 -8.725E+01 -5.204E-03 8.457E-01 -5.204E-03 8.457E-01 -3.661E+01 -8.725E+01
114219236 -3.723E+01 -8.712E+01 -5.179E-03 7.873E-01 -5.179E-03 7.873E-01 -3.723E+01 -8.712E+01
120017452 -3.788E+01 -8.696E+01 -5.169E-03 7.309E-01 -5.169E-03 7.309E-01 -3.788E+01 -8.696E+01
126110008 -3.855E+01 -8.677E+01 -5.174E-03 6.762E-01 -5.174E-03 6.762E-01 -3.855E+01 -8.677E+01
132511845 -3.926E+01 -8.654E+01 -5.192E-03 6.232E-01 -5.192E-03 6.232E-01 -3.926E+01 -8.654E+01
139238665 -4.000E+01 -8.627E+01 -5.223E-03 5.718E-01 -5.223E-03 5.718E-01 -4.000E+01 -8.627E+01
146306965 -4.080E+01 -8.593E+01 -5.265E-03 5.217E-01 -5.265E-03 5.217E-01 -4.080E+01 -8.593E+01
153734080 -4.165E+01 -8.552E+01 -5.319E-03 4.729E-01 -5.319E-03 4.729E-01 -4.165E+01 -8.552E+01
161538223 -4.256E+01 -8.501E+01 -5.384E-03 4.253E-01 -5.384E-03 4.253E-01 -4.256E+01 -8.501E+01
169738536 -4.356E+01 -8.438E+01 -5.459E-03 3.787E-01 -5.459E-03 3.787E-01 -4.356E+01 -8.438E+01
178355129 -4.466E+01 -8.357E+01 -5.543E-03 3.331E-01 -5.543E-03 3.331E-01 -4.466E+01 -8.357E+01
187409133 -4.590E+01 -8.250E+01 -5.638E-03 2.882E-01 -5.638E-03 2.882E-01 -4.590E+01 -8.250E+01
196922754 -4.731E+01 -8.106E+01 -5.741E-03 2.441E-01 -5.741E-03 2.441E-01 -4.731E+01 -8.106E+01
206919324 -4.896E+01 -7.901E+01 -5.853E-03 2.006E-01 -5.853E-03 2.006E-01 -4.896E+01 -7.901E+01
217423359 -5.095E+01 -7.588E+01 -5.974E-03 1.576E-01 -5.974E-03 1.576E-01 -5.095E+01 -7.588E+01
228460620 -5.345E+01 -7.064E+01 -6.103E-03 1.149E-01 -6.103E-03 1.149E-01 -5.345E+01 -7.064E+01
240058176 -5.674E+01 -6.040E+01 -6.242E-03 7.257E-02 -6.242E-03 7.257E-02 -5.674E+01 -6.040E+01
252244469 -6.085E+01 -3.578E+01 -6.388E-03 3.039E-02 -6.388E-03 3.039E-02 -6.085E+01 -3.578E+01
265049386 -6.215E+01 1.517E+01 -6.544E-03 -1.171E-02 -6.544E-03 -1.171E-02 -6.215E+01 1.517E+01
278504330 -5.830E+01 5.056E+01 -6.708E-03 -5.384E-02 -6.708E-03 -5.384E-02 -5.830E+01 5.056E+01
292642300 -5.464E+01 6.467E+01 -6.880E-03 -9.610E-02 -6.880E-03 -9.610E-02 -5.464E+01 6.467E+01
307497969 -5.187E+01 7.135E+01 -7.062E-03 -1.386E-01 -7.062E-03 -1.386E-01 -5.187E+01 7.135E+01
323107770 -4.970E+01 7.514E+01 -7.253E-03 -1.814E-01 -7.253E-03 -1.814E-01 -4.970E+01 7.514E+01
339509985 -4.793E+01 7.755E+01 -7.454E-03 -2.247E-01 -7.454E-03 -2.247E-01 -4.793E+01 7.755E+01
356744841 -4.644E+01 7.920E+01 -7.664E-03 -2.685E-01 -7.664E-03 -2.685E-01 -4.644E+01 7.920E+01
374854606 -4.514E+01 8.041E+01 -7.885E-03 -3.130E-01 -7.885E-03 -3.130E-01 -4.514E+01 8.041E+01
393883693 -4.399E+01 8.132E+01 -8.116E-03 -3.583E-01 -8.116E-03 -3.583E-01 -4.399E+01 8.132E+01
413878772 -4.295E+01 8.203E+01 -8.359E-03 -4.044E-01 -8.359E-03 -4.044E-01 -4.295E+01 8.203E+01
434888879 -4.201E+01 8.260E+01 -8.613E-03 -4.515E-01 -8.613E-03 -4.515E-01 -4.201E+01 8.260E+01
456965541 -4.113E+01 8.306E+01 -8.880E-03 -4.997E-01 -8.880E-03 -4.997E-01 -4.113E+01 8.306E+01
480162900 -4.032E+01 8.345E+01 -9.159E-03 -5.491E-01 -9.159E-03 -5.491E-01 -4.032E+01 8.345E+01
504537849 -3.956E+01 8.377E+01 -9.453E-03 -5.999E-01 -9.453E-03 -5.999E-01 -3.956E+01 8.377E+01
530150166 -3.884E+01 8.404E+01 -9.762E-03 -6.522E-01 -9.762E-03 -6.522E-01 -3.884E+01 8.404E+01
557062664 -3.815E+01 8.426E+01 -1.009E-02 -7.060E-01 -1.009E-02 -7.060E-01 -3.815E+01 8.426E+01
585341345 -3.750E+01 8.446E+01 -1.043E-02 -7.616E-01 -1.043E-02 -7.616E-01 -3.750E+01 8.446E+01
615055564 -3.687E+01 8.463E+01 -1.079E-02 -8.190E-01 -1.079E-02 -8.190E-01 -3.687E+01 8.463E+01
646278192 -3.626E+01 8.477E+01 -1.117E-02 -8.785E-01 -1.117E-02 -8.785E-01 -3.626E+01 8.477E+01
679085803 -3.568E+01 8.489E+01 -1.156E-02 -9.400E-01 -1.156E-02 -9.400E-01 -3.568E+01 8.489E+01
713558857 -3.511E+01 8.499E+01 -1.199E-02 -1.004E+00 -1.199E-02 -1.004E+00 -3.511E+01 8.499E+01
749781898 -3.455E+01 8.508E+01 -1.243E-02 -1.070E+00 -1.243E-02 -1.070E+00 -3.455E+01 8.508E+01
787843763 -3.401E+01 8.516E+01 -1.291E-02 -1.139E+00 -1.291E-02 -1.139E+00 -3.401E+01 8.516E+01
827837797 -3.348E+01 8.522E+01 -1.341E-02 -1.211E+00 -1.341E-02 -1.211E+00 -3.348E+01 8.522E+01
869862084 -3.297E+01 8.527E+01 -1.394E-02 -1.286E+00 -1.394E-02 -1.286E+00 -3.297E+01 8.527E+01
914019689 -3.246E+01 8.531E+01 -1.450E-02 -1.363E+00 -1.450E-02 -1.363E+00 -3.246E+01 8.531E+01
960418907 -3.195E+01 8.533E+01 -1.510E-02 -1.445E+00 -1.510E-02 -1.445E+00 -3.195E+01 8.533E+01
1009173531 -3.146E+01 8.535E+01 -1.574E-02 -1.529E+00 -1.574E-02 -1.529E+00 -3.146E+01 8.535E+01
1060403130 -3.097E+01 8.536E+01 -1.642E-02 -1.618E+00 -1.642E-02 -1.618E+00 -3.097E+01 8.536E+01
1114233345 -3.049E+01 8.536E+01 -1.715E-02 -1.710E+00 -1.715E-02 -1.710E+00 -3.049E+01 8.536E+01
1170796192 -3.002E+01 8.535E+01 -1.793E-02 -1.807E+00 -1.793E-02 -1.807E+00 -3.002E+01 8.535E+01
1230230390 -2.954E+01 8.533E+01 -1.877E-02 -1.908E+00 -1.877E-02 -1.908E+00 -2.954E+01 8.533E+01
1292681701 -2.908E+01 8.531E+01 -1.966E-02 -2.013E+00 -1.966E-02 -2.013E+00 -2.908E+01 8.531E+01
1358303285 -2.861E+01 8.527E+01 -2.062E-02 -2.124E+00 -2.062E-02 -2.124E+00 -2.861E+01 8.527E+01
1427256078 -2.815E+01 8.523E+01 -2.166E-02 -2.239E+00 -2.166E-02 -2.239E+00 -2.815E+01 8.523E+01
1499709184 -2.770E+01 8.518E+01 -2.277E-02 -2.361E+00 -2.277E-02 -2.361E+00 -2.770E+01 8.518E+01
1575840293 -2.724E+01 8.512E+01 -2.397E-02 -2.488E+00 -2.397E-02 -2.488E+00 -2.724E+01 8.512E+01
1655836116 -2.679E+01 8.505E+01 -2.526E-02 -2.621E+00 -2.526E-02 -2.621E+00 -2.679E+01 8.505E+01
1739892840 -2.634E+01 8.498E+01 -2.665E-02 -2.760E+00 -2.665E-02 -2.760E+00 -2.634E+01 8.498E+01
1828216612 -2.589E+01 8.489E+01 -2.816E-02 -2.906E+00 -2.816E-02 -2.906E+00 -2.589E+01 8.489E+01
1921024045 -2.545E+01 8.480E+01 -2.979E-02 -3.059E+00 -2.979E-02 -3.059E+00 -2.545E+01 8.480E+01
2018542747 -2.501E+01 8.469E+01 -3.156E-02 -3.219E+00 -3.156E-02 -3.219E+00 -2.501E+01 8.469E+01
2121011879 -2.456E+01 8.458E+01 -3.348E-02 -3.388E+00 -3.348E-02 -3.388E+00 -2.456E+01 8.458E+01
2228682746 -2.412E+01 8.445E+01 -3.556E-02 -3.564E+00 -3.556E-02 -3.564E+00 -2.412E+01 8.445E+01
2341819407 -2.368E+01 8.432E+01 -3.782E-02 -3.749E+00 -3.782E-02 -3.749E+00 -2.368E+01 8.432E+01
2460699329 -2.325E+01 8.418E+01 -4.028E-02 -3.944E+00 -4.028E-02 -3.944E+00 -2.325E+01 8.418E+01
2585614060 -2.281E+01 8.402E+01 -4.295E-02 -4.147E+00 -4.295E-02 -4.147E+00 -2.281E+01 8.402E+01
2716869953 -2.237E+01 8.385E+01 -4.587E-02 -4.361E+00 -4.587E-02 -4.361E+00 -2.237E+01 8.385E+01
2854788908 -2.194E+01 8.367E+01 -4.904E-02 -4.585E+00 -4.904E-02 -4.585E+00 -2.194E+01 8.367E+01
2999709170 -2.151E+01 8.348E+01 -5.250E-02 -4.821E+00 -5.250E-02 -4.821E+00 -2.151E+01 8.348E+01
3151986151 -2.107E+01 8.328E+01 -5.628E-02 -5.067E+00 -5.628E-02 -5.067E+00 -2.107E+01 8.328E+01
3311993308 -2.064E+01 8.306E+01 -6.041E-02 -5.326E+00 -6.041E-02 -5.326E+00 -2.064E+01 8.306E+01
3480123055 -2.021E+01 8.283E+01 -6.491E-02 -5.598E+00 -6.491E-02 -5.598E+00 -2.021E+01 8.283E+01
3656787726 -1.978E+01 8.258E+01 -6.984E-02 -5.883E+00 -6.984E-02 -5.883E+00 -1.978E+01 8.258E+01
3842420588 -1.935E+01 8.232E+01 -7.522E-02 -6.182E+00 -7.522E-02 -6.182E+00 -1.935E+01 8.232E+01
4037476900 -1.893E+01 8.205E+01 -8.112E-02 -6.495E+00 -8.112E-02 -6.495E+00 -1.893E+01 8.205E+01
4242435034 -1.850E+01 8.176E+01 -8.757E-02 -6.824E+00 -8.757E-02 -6.824E+00 -1.850E+01 8.176E+01
4457797646 -1.807E+01 8.145E+01 -9.463E-02 -7.169E+00 -9.463E-02 -7.169E+00 -1.807E+01 8.145E+01
4684092907 -1.765E+01 8.112E+01 -1.024E-01 -7.531E+00 -1.024E-01 -7.531E+00 -1.765E+01 8.112E+01
4921875801 -1.722E+01 8.077E+01 -1.108E-01 -7.910E+00 -1.108E-01 -7.910E+00 -1.722E+01 8.077E+01
5171729486 -1.680E+01 8.041E+01 -1.201E-01 -8.308E+00 -1.201E-01 -8.308E+00 -1.680E+01 8.041E+01
5434266722 -1.638E+01 8.002E+01 -1.303E-01 -8.725E+00 -1.303E-01 -8.725E+00 -1.638E+01 8.002E+01
5710131376 -1.596E+01 7.962E+01 -1.414E-01 -9.161E+00 -1.414E-01 -9.161E+00 -1.596E+01 7.962E+01
6000000000 -1.554E+01 7.919E+01 -1.537E-01 -9.619E+00 -1.537E-01 -9.619E+00 -1.554E+01 7.919E+01
