!Murata Part Number:GRM1555C1H391JA01
!These Parameters are Measured in Series Mode Connection
!       o--ll--o
!Port1            Port2
!       o------o
!Operation Temp=25[C], DC Bias Voltage=0[V]
!Freq. Start=300[kHz] Stop=6[GHz], 201[Steps]
# Hz S DB R 50
!Freq.[Hz] MagS11[dB] PhaseS11[DEG] MagS21[dB] PhaseS21[DEG] MagS12[dB] PhaseS12[DEG] MagS22[dB] PhaseS22[DEG]
300000 -2.361E-02 -4.204E+00 -2.270E+01 8.578E+01 -2.270E+01 8.578E+01 -2.361E-02 -4.204E+00
315229 -2.605E-02 -4.417E+00 -2.227E+01 8.556E+01 -2.227E+01 8.556E+01 -2.605E-02 -4.417E+00
331231 -2.874E-02 -4.640E+00 -2.184E+01 8.534E+01 -2.184E+01 8.534E+01 -2.874E-02 -4.640E+00
348046 -3.171E-02 -4.875E+00 -2.141E+01 8.511E+01 -2.141E+01 8.511E+01 -3.171E-02 -4.875E+00
365714 -3.499E-02 -5.121E+00 -2.099E+01 8.486E+01 -2.099E+01 8.486E+01 -3.499E-02 -5.121E+00
384279 -3.860E-02 -5.379E+00 -2.056E+01 8.460E+01 -2.056E+01 8.460E+01 -3.860E-02 -5.379E+00
403787 -4.258E-02 -5.651E+00 -2.013E+01 8.433E+01 -2.013E+01 8.433E+01 -4.258E-02 -5.651E+00
424285 -4.698E-02 -5.935E+00 -1.971E+01 8.405E+01 -1.971E+01 8.405E+01 -4.698E-02 -5.935E+00
445823 -5.183E-02 -6.234E+00 -1.928E+01 8.375E+01 -1.928E+01 8.375E+01 -5.183E-02 -6.234E+00
468455 -5.717E-02 -6.548E+00 -1.886E+01 8.343E+01 -1.886E+01 8.343E+01 -5.717E-02 -6.548E+00
492235 -6.306E-02 -6.878E+00 -1.843E+01 8.310E+01 -1.843E+01 8.310E+01 -6.306E-02 -6.878E+00
517223 -6.956E-02 -7.223E+00 -1.801E+01 8.276E+01 -1.801E+01 8.276E+01 -6.956E-02 -7.223E+00
543479 -7.672E-02 -7.586E+00 -1.759E+01 8.240E+01 -1.759E+01 8.240E+01 -7.672E-02 -7.586E+00
571068 -8.461E-02 -7.966E+00 -1.717E+01 8.202E+01 -1.717E+01 8.202E+01 -8.461E-02 -7.966E+00
600058 -9.330E-02 -8.365E+00 -1.674E+01 8.162E+01 -1.674E+01 8.162E+01 -9.330E-02 -8.365E+00
630519 -1.029E-01 -8.783E+00 -1.632E+01 8.120E+01 -1.632E+01 8.120E+01 -1.029E-01 -8.783E+00
662527 -1.134E-01 -9.221E+00 -1.590E+01 8.076E+01 -1.590E+01 8.076E+01 -1.134E-01 -9.221E+00
696160 -1.250E-01 -9.680E+00 -1.549E+01 8.030E+01 -1.549E+01 8.030E+01 -1.250E-01 -9.680E+00
731499 -1.378E-01 -1.016E+01 -1.507E+01 7.982E+01 -1.507E+01 7.982E+01 -1.378E-01 -1.016E+01
768633 -1.519E-01 -1.067E+01 -1.465E+01 7.932E+01 -1.465E+01 7.932E+01 -1.519E-01 -1.067E+01
807652 -1.674E-01 -1.119E+01 -1.424E+01 7.879E+01 -1.424E+01 7.879E+01 -1.674E-01 -1.119E+01
848652 -1.844E-01 -1.175E+01 -1.382E+01 7.823E+01 -1.382E+01 7.823E+01 -1.844E-01 -1.175E+01
891732 -2.032E-01 -1.233E+01 -1.341E+01 7.766E+01 -1.341E+01 7.766E+01 -2.032E-01 -1.233E+01
937000 -2.237E-01 -1.293E+01 -1.300E+01 7.705E+01 -1.300E+01 7.705E+01 -2.237E-01 -1.293E+01
984566 -2.464E-01 -1.356E+01 -1.260E+01 7.642E+01 -1.260E+01 7.642E+01 -2.464E-01 -1.356E+01
1034546 -2.712E-01 -1.422E+01 -1.219E+01 7.576E+01 -1.219E+01 7.576E+01 -2.712E-01 -1.422E+01
1087064 -2.984E-01 -1.491E+01 -1.179E+01 7.507E+01 -1.179E+01 7.507E+01 -2.984E-01 -1.491E+01
1142248 -3.283E-01 -1.564E+01 -1.139E+01 7.435E+01 -1.139E+01 7.435E+01 -3.283E-01 -1.564E+01
1200233 -3.611E-01 -1.639E+01 -1.099E+01 7.359E+01 -1.099E+01 7.359E+01 -3.611E-01 -1.639E+01
1261161 -3.970E-01 -1.717E+01 -1.060E+01 7.281E+01 -1.060E+01 7.281E+01 -3.970E-01 -1.717E+01
1325183 -4.362E-01 -1.799E+01 -1.021E+01 7.199E+01 -1.021E+01 7.199E+01 -4.362E-01 -1.799E+01
1392454 -4.792E-01 -1.884E+01 -9.819E+00 7.114E+01 -9.819E+00 7.114E+01 -4.792E-01 -1.884E+01
1463141 -5.261E-01 -1.972E+01 -9.435E+00 7.026E+01 -9.435E+00 7.026E+01 -5.261E-01 -1.972E+01
1537415 -5.774E-01 -2.064E+01 -9.056E+00 6.934E+01 -9.056E+00 6.934E+01 -5.774E-01 -2.064E+01
1615461 -6.332E-01 -2.159E+01 -8.682E+00 6.839E+01 -8.682E+00 6.839E+01 -6.332E-01 -2.159E+01
1697468 -6.941E-01 -2.258E+01 -8.313E+00 6.740E+01 -8.313E+00 6.740E+01 -6.941E-01 -2.258E+01
1783638 -7.603E-01 -2.361E+01 -7.949E+00 6.637E+01 -7.949E+00 6.637E+01 -7.603E-01 -2.361E+01
1874182 -8.323E-01 -2.466E+01 -7.591E+00 6.532E+01 -7.591E+00 6.532E+01 -8.323E-01 -2.466E+01
1969323 -9.104E-01 -2.576E+01 -7.239E+00 6.422E+01 -7.239E+00 6.422E+01 -9.104E-01 -2.576E+01
2069294 -9.950E-01 -2.688E+01 -6.893E+00 6.310E+01 -6.893E+00 6.310E+01 -9.950E-01 -2.688E+01
2174339 -1.087E+00 -2.805E+01 -6.555E+00 6.193E+01 -6.555E+00 6.193E+01 -1.087E+00 -2.805E+01
2284717 -1.185E+00 -2.924E+01 -6.224E+00 6.074E+01 -6.224E+00 6.074E+01 -1.185E+00 -2.924E+01
2400698 -1.292E+00 -3.046E+01 -5.900E+00 5.952E+01 -5.900E+00 5.952E+01 -1.292E+00 -3.046E+01
2522567 -1.407E+00 -3.172E+01 -5.585E+00 5.826E+01 -5.585E+00 5.826E+01 -1.407E+00 -3.172E+01
2650622 -1.530E+00 -3.300E+01 -5.278E+00 5.698E+01 -5.278E+00 5.698E+01 -1.530E+00 -3.300E+01
2785178 -1.662E+00 -3.431E+01 -4.980E+00 5.567E+01 -4.980E+00 5.567E+01 -1.662E+00 -3.431E+01
2926565 -1.804E+00 -3.564E+01 -4.691E+00 5.434E+01 -4.691E+00 5.434E+01 -1.804E+00 -3.564E+01
3075129 -1.955E+00 -3.699E+01 -4.412E+00 5.299E+01 -4.412E+00 5.299E+01 -1.955E+00 -3.699E+01
3231234 -2.115E+00 -3.837E+01 -4.143E+00 5.161E+01 -4.143E+00 5.161E+01 -2.115E+00 -3.837E+01
3395264 -2.286E+00 -3.975E+01 -3.883E+00 5.023E+01 -3.883E+00 5.023E+01 -2.286E+00 -3.975E+01
3567621 -2.468E+00 -4.115E+01 -3.634E+00 4.882E+01 -3.634E+00 4.882E+01 -2.468E+00 -4.115E+01
3748728 -2.659E+00 -4.256E+01 -3.396E+00 4.742E+01 -3.396E+00 4.742E+01 -2.659E+00 -4.256E+01
3939028 -2.861E+00 -4.398E+01 -3.168E+00 4.600E+01 -3.168E+00 4.600E+01 -2.861E+00 -4.398E+01
4138988 -3.074E+00 -4.540E+01 -2.950E+00 4.458E+01 -2.950E+00 4.458E+01 -3.074E+00 -4.540E+01
4349100 -3.298E+00 -4.681E+01 -2.744E+00 4.316E+01 -2.744E+00 4.316E+01 -3.298E+00 -4.681E+01
4569877 -3.532E+00 -4.823E+01 -2.548E+00 4.175E+01 -2.548E+00 4.175E+01 -3.532E+00 -4.823E+01
4801862 -3.777E+00 -4.963E+01 -2.362E+00 4.035E+01 -2.362E+00 4.035E+01 -3.777E+00 -4.963E+01
5045623 -4.032E+00 -5.103E+01 -2.187E+00 3.895E+01 -2.187E+00 3.895E+01 -4.032E+00 -5.103E+01
5301759 -4.297E+00 -5.241E+01 -2.022E+00 3.757E+01 -2.022E+00 3.757E+01 -4.297E+00 -5.241E+01
5570897 -4.572E+00 -5.377E+01 -1.867E+00 3.621E+01 -1.867E+00 3.621E+01 -4.572E+00 -5.377E+01
5853697 -4.857E+00 -5.511E+01 -1.721E+00 3.487E+01 -1.721E+00 3.487E+01 -4.857E+00 -5.511E+01
6150854 -5.151E+00 -5.643E+01 -1.585E+00 3.355E+01 -1.585E+00 3.355E+01 -5.151E+00 -5.643E+01
6463095 -5.454E+00 -5.772E+01 -1.458E+00 3.225E+01 -1.458E+00 3.225E+01 -5.454E+00 -5.772E+01
6791187 -5.766E+00 -5.899E+01 -1.340E+00 3.099E+01 -1.340E+00 3.099E+01 -5.766E+00 -5.899E+01
7135934 -6.087E+00 -6.023E+01 -1.230E+00 2.975E+01 -1.230E+00 2.975E+01 -6.087E+00 -6.023E+01
7498182 -6.415E+00 -6.143E+01 -1.128E+00 2.854E+01 -1.128E+00 2.854E+01 -6.415E+00 -6.143E+01
7878820 -6.751E+00 -6.261E+01 -1.033E+00 2.737E+01 -1.033E+00 2.737E+01 -6.751E+00 -6.261E+01
8278779 -7.094E+00 -6.375E+01 -9.454E-01 2.622E+01 -9.454E-01 2.622E+01 -7.094E+00 -6.375E+01
8699043 -7.444E+00 -6.486E+01 -8.645E-01 2.512E+01 -8.645E-01 2.512E+01 -7.444E+00 -6.486E+01
9140640 -7.800E+00 -6.593E+01 -7.900E-01 2.404E+01 -7.900E-01 2.404E+01 -7.800E+00 -6.593E+01
9604655 -8.162E+00 -6.697E+01 -7.214E-01 2.300E+01 -7.214E-01 2.300E+01 -8.162E+00 -6.697E+01
10092225 -8.529E+00 -6.797E+01 -6.583E-01 2.200E+01 -6.583E-01 2.200E+01 -8.529E+00 -6.797E+01
10604545 -8.902E+00 -6.894E+01 -6.003E-01 2.103E+01 -6.003E-01 2.103E+01 -8.902E+00 -6.894E+01
11142874 -9.280E+00 -6.988E+01 -5.471E-01 2.009E+01 -5.471E-01 2.009E+01 -9.280E+00 -6.988E+01
11708529 -9.662E+00 -7.077E+01 -4.984E-01 1.919E+01 -4.984E-01 1.919E+01 -9.662E+00 -7.077E+01
12302900 -1.005E+01 -7.164E+01 -4.538E-01 1.833E+01 -4.538E-01 1.833E+01 -1.005E+01 -7.164E+01
12927444 -1.044E+01 -7.247E+01 -4.130E-01 1.750E+01 -4.130E-01 1.750E+01 -1.044E+01 -7.247E+01
13583691 -1.083E+01 -7.327E+01 -3.757E-01 1.670E+01 -3.757E-01 1.670E+01 -1.083E+01 -7.327E+01
14273253 -1.123E+01 -7.403E+01 -3.417E-01 1.593E+01 -3.417E-01 1.593E+01 -1.123E+01 -7.403E+01
14997819 -1.163E+01 -7.477E+01 -3.106E-01 1.520E+01 -3.106E-01 1.520E+01 -1.163E+01 -7.477E+01
15759167 -1.203E+01 -7.547E+01 -2.823E-01 1.449E+01 -2.823E-01 1.449E+01 -1.203E+01 -7.547E+01
16559164 -1.244E+01 -7.615E+01 -2.564E-01 1.382E+01 -2.564E-01 1.382E+01 -1.244E+01 -7.615E+01
17399772 -1.285E+01 -7.679E+01 -2.329E-01 1.317E+01 -2.329E-01 1.317E+01 -1.285E+01 -7.679E+01
18283052 -1.326E+01 -7.741E+01 -2.115E-01 1.255E+01 -2.115E-01 1.255E+01 -1.326E+01 -7.741E+01
19211172 -1.367E+01 -7.800E+01 -1.920E-01 1.196E+01 -1.920E-01 1.196E+01 -1.367E+01 -7.800E+01
20186406 -1.409E+01 -7.856E+01 -1.743E-01 1.139E+01 -1.743E-01 1.139E+01 -1.409E+01 -7.856E+01
21211147 -1.450E+01 -7.910E+01 -1.582E-01 1.085E+01 -1.582E-01 1.085E+01 -1.450E+01 -7.910E+01
22287908 -1.492E+01 -7.961E+01 -1.435E-01 1.034E+01 -1.435E-01 1.034E+01 -1.492E+01 -7.961E+01
23419329 -1.534E+01 -8.010E+01 -1.302E-01 9.845E+00 -1.302E-01 9.845E+00 -1.534E+01 -8.010E+01
24608186 -1.576E+01 -8.057E+01 -1.181E-01 9.374E+00 -1.181E-01 9.374E+00 -1.576E+01 -8.057E+01
25857394 -1.619E+01 -8.102E+01 -1.072E-01 8.924E+00 -1.072E-01 8.924E+00 -1.619E+01 -8.102E+01
27170017 -1.661E+01 -8.144E+01 -9.719E-02 8.496E+00 -9.719E-02 8.496E+00 -1.661E+01 -8.144E+01
28549273 -1.704E+01 -8.185E+01 -8.815E-02 8.086E+00 -8.815E-02 8.086E+00 -1.704E+01 -8.185E+01
29998546 -1.746E+01 -8.224E+01 -7.995E-02 7.696E+00 -7.995E-02 7.696E+00 -1.746E+01 -8.224E+01
31521389 -1.789E+01 -8.261E+01 -7.251E-02 7.323E+00 -7.251E-02 7.323E+00 -1.789E+01 -8.261E+01
33121539 -1.832E+01 -8.296E+01 -6.576E-02 6.968E+00 -6.576E-02 6.968E+00 -1.832E+01 -8.296E+01
34802918 -1.875E+01 -8.329E+01 -5.964E-02 6.629E+00 -5.964E-02 6.629E+00 -1.875E+01 -8.329E+01
36569650 -1.919E+01 -8.361E+01 -5.409E-02 6.305E+00 -5.409E-02 6.305E+00 -1.919E+01 -8.361E+01
38426068 -1.962E+01 -8.392E+01 -4.906E-02 5.997E+00 -4.906E-02 5.997E+00 -1.962E+01 -8.392E+01
40376726 -2.006E+01 -8.420E+01 -4.451E-02 5.703E+00 -4.451E-02 5.703E+00 -2.006E+01 -8.420E+01
42426407 -2.049E+01 -8.448E+01 -4.038E-02 5.422E+00 -4.038E-02 5.422E+00 -2.049E+01 -8.448E+01
44580137 -2.093E+01 -8.474E+01 -3.664E-02 5.154E+00 -3.664E-02 5.154E+00 -2.093E+01 -8.474E+01
46843200 -2.137E+01 -8.499E+01 -3.325E-02 4.899E+00 -3.325E-02 4.899E+00 -2.137E+01 -8.499E+01
49221144 -2.181E+01 -8.522E+01 -3.018E-02 4.656E+00 -3.018E-02 4.656E+00 -2.181E+01 -8.522E+01
51719802 -2.226E+01 -8.545E+01 -2.740E-02 4.424E+00 -2.740E-02 4.424E+00 -2.226E+01 -8.545E+01
54345301 -2.270E+01 -8.566E+01 -2.489E-02 4.202E+00 -2.489E-02 4.202E+00 -2.270E+01 -8.566E+01
57104082 -2.315E+01 -8.586E+01 -2.261E-02 3.991E+00 -2.261E-02 3.991E+00 -2.315E+01 -8.586E+01
60002909 -2.360E+01 -8.606E+01 -2.056E-02 3.789E+00 -2.056E-02 3.789E+00 -2.360E+01 -8.606E+01
63048891 -2.405E+01 -8.624E+01 -1.870E-02 3.596E+00 -1.870E-02 3.596E+00 -2.405E+01 -8.624E+01
66249500 -2.451E+01 -8.641E+01 -1.701E-02 3.412E+00 -1.701E-02 3.412E+00 -2.451E+01 -8.641E+01
69612584 -2.496E+01 -8.657E+01 -1.549E-02 3.237E+00 -1.549E-02 3.237E+00 -2.496E+01 -8.657E+01
73146391 -2.543E+01 -8.673E+01 -1.412E-02 3.069E+00 -1.412E-02 3.069E+00 -2.543E+01 -8.673E+01
76859588 -2.589E+01 -8.687E+01 -1.288E-02 2.909E+00 -1.288E-02 2.909E+00 -2.589E+01 -8.687E+01
80761282 -2.636E+01 -8.701E+01 -1.176E-02 2.756E+00 -1.176E-02 2.756E+00 -2.636E+01 -8.701E+01
84861040 -2.684E+01 -8.714E+01 -1.075E-02 2.609E+00 -1.075E-02 2.609E+00 -2.684E+01 -8.714E+01
89168919 -2.731E+01 -8.726E+01 -9.836E-03 2.469E+00 -9.836E-03 2.469E+00 -2.731E+01 -8.726E+01
93695483 -2.780E+01 -8.737E+01 -9.017E-03 2.335E+00 -9.017E-03 2.335E+00 -2.780E+01 -8.737E+01
98451832 -2.829E+01 -8.748E+01 -8.279E-03 2.206E+00 -8.279E-03 2.206E+00 -2.829E+01 -8.748E+01
103449632 -2.879E+01 -8.758E+01 -7.616E-03 2.083E+00 -7.616E-03 2.083E+00 -2.879E+01 -8.758E+01
108701141 -2.929E+01 -8.767E+01 -7.021E-03 1.966E+00 -7.021E-03 1.966E+00 -2.929E+01 -8.767E+01
114219236 -2.981E+01 -8.775E+01 -6.487E-03 1.852E+00 -6.487E-03 1.852E+00 -2.981E+01 -8.775E+01
120017452 -3.033E+01 -8.783E+01 -6.009E-03 1.744E+00 -6.009E-03 1.744E+00 -3.033E+01 -8.783E+01
126110008 -3.087E+01 -8.789E+01 -5.583E-03 1.639E+00 -5.583E-03 1.639E+00 -3.087E+01 -8.789E+01
132511845 -3.142E+01 -8.795E+01 -5.203E-03 1.539E+00 -5.203E-03 1.539E+00 -3.142E+01 -8.795E+01
139238665 -3.198E+01 -8.800E+01 -4.865E-03 1.443E+00 -4.865E-03 1.443E+00 -3.198E+01 -8.800E+01
146306965 -3.256E+01 -8.805E+01 -4.567E-03 1.349E+00 -4.567E-03 1.349E+00 -3.256E+01 -8.805E+01
153734080 -3.316E+01 -8.808E+01 -4.303E-03 1.260E+00 -4.303E-03 1.260E+00 -3.316E+01 -8.808E+01
161538223 -3.378E+01 -8.810E+01 -4.072E-03 1.173E+00 -4.072E-03 1.173E+00 -3.378E+01 -8.810E+01
169738536 -3.442E+01 -8.811E+01 -3.870E-03 1.089E+00 -3.870E-03 1.089E+00 -3.442E+01 -8.811E+01
178355129 -3.509E+01 -8.811E+01 -3.696E-03 1.008E+00 -3.696E-03 1.008E+00 -3.509E+01 -8.811E+01
187409133 -3.580E+01 -8.809E+01 -3.546E-03 9.295E-01 -3.546E-03 9.295E-01 -3.580E+01 -8.809E+01
196922754 -3.654E+01 -8.806E+01 -3.419E-03 8.532E-01 -3.419E-03 8.532E-01 -3.654E+01 -8.806E+01
206919324 -3.733E+01 -8.800E+01 -3.314E-03 7.789E-01 -3.314E-03 7.789E-01 -3.733E+01 -8.800E+01
217423359 -3.818E+01 -8.792E+01 -3.229E-03 7.065E-01 -3.229E-03 7.065E-01 -3.818E+01 -8.792E+01
228460620 -3.909E+01 -8.780E+01 -3.162E-03 6.359E-01 -3.162E-03 6.359E-01 -3.909E+01 -8.780E+01
240058176 -4.009E+01 -8.764E+01 -3.112E-03 5.668E-01 -3.112E-03 5.668E-01 -4.009E+01 -8.764E+01
252244469 -4.119E+01 -8.742E+01 -3.078E-03 4.991E-01 -3.078E-03 4.991E-01 -4.119E+01 -8.742E+01
265049386 -4.243E+01 -8.711E+01 -3.060E-03 4.326E-01 -3.060E-03 4.326E-01 -4.243E+01 -8.711E+01
278504330 -4.385E+01 -8.667E+01 -3.056E-03 3.672E-01 -3.056E-03 3.672E-01 -4.385E+01 -8.667E+01
292642300 -4.552E+01 -8.603E+01 -3.065E-03 3.027E-01 -3.065E-03 3.027E-01 -4.552E+01 -8.603E+01
307497969 -4.757E+01 -8.501E+01 -3.088E-03 2.389E-01 -3.088E-03 2.389E-01 -4.757E+01 -8.501E+01
323107770 -5.021E+01 -8.322E+01 -3.124E-03 1.757E-01 -3.124E-03 1.757E-01 -5.021E+01 -8.322E+01
339509985 -5.396E+01 -7.945E+01 -3.173E-03 1.130E-01 -3.173E-03 1.130E-01 -5.396E+01 -7.945E+01
356744841 -6.038E+01 -6.708E+01 -3.234E-03 5.051E-02 -3.234E-03 5.051E-02 -6.038E+01 -6.708E+01
374854606 -6.727E+01 2.849E+01 -3.307E-03 -1.184E-02 -3.307E-03 -1.184E-02 -6.727E+01 2.849E+01
393883693 -5.738E+01 7.318E+01 -3.393E-03 -7.422E-02 -3.393E-03 -7.422E-02 -5.738E+01 7.318E+01
413878772 -5.232E+01 8.037E+01 -3.491E-03 -1.368E-01 -3.491E-03 -1.368E-01 -5.232E+01 8.037E+01
434888879 -4.910E+01 8.311E+01 -3.602E-03 -1.997E-01 -3.602E-03 -1.997E-01 -4.910E+01 8.311E+01
456965541 -4.673E+01 8.453E+01 -3.725E-03 -2.630E-01 -3.725E-03 -2.630E-01 -4.673E+01 8.453E+01
480162900 -4.485E+01 8.538E+01 -3.862E-03 -3.271E-01 -3.862E-03 -3.271E-01 -4.485E+01 8.538E+01
504537849 -4.328E+01 8.594E+01 -4.013E-03 -3.919E-01 -4.013E-03 -3.919E-01 -4.328E+01 8.594E+01
530150166 -4.194E+01 8.632E+01 -4.179E-03 -4.577E-01 -4.179E-03 -4.577E-01 -4.194E+01 8.632E+01
557062664 -4.076E+01 8.660E+01 -4.360E-03 -5.246E-01 -4.360E-03 -5.246E-01 -4.076E+01 8.660E+01
585341345 -3.970E+01 8.680E+01 -4.557E-03 -5.927E-01 -4.557E-03 -5.927E-01 -3.970E+01 8.680E+01
615055564 -3.873E+01 8.695E+01 -4.772E-03 -6.624E-01 -4.772E-03 -6.624E-01 -3.873E+01 8.695E+01
646278192 -3.785E+01 8.706E+01 -5.005E-03 -7.336E-01 -5.005E-03 -7.336E-01 -3.785E+01 8.706E+01
679085803 -3.702E+01 8.713E+01 -5.258E-03 -8.067E-01 -5.258E-03 -8.067E-01 -3.702E+01 8.713E+01
713558857 -3.625E+01 8.719E+01 -5.532E-03 -8.817E-01 -5.532E-03 -8.817E-01 -3.625E+01 8.719E+01
749781898 -3.552E+01 8.722E+01 -5.830E-03 -9.589E-01 -5.830E-03 -9.589E-01 -3.552E+01 8.722E+01
787843763 -3.483E+01 8.724E+01 -6.152E-03 -1.038E+00 -6.152E-03 -1.038E+00 -3.483E+01 8.724E+01
827837797 -3.417E+01 8.725E+01 -6.502E-03 -1.120E+00 -6.502E-03 -1.120E+00 -3.417E+01 8.725E+01
869862084 -3.354E+01 8.724E+01 -6.881E-03 -1.205E+00 -6.881E-03 -1.205E+00 -3.354E+01 8.724E+01
914019689 -3.293E+01 8.722E+01 -7.292E-03 -1.293E+00 -7.292E-03 -1.293E+00 -3.293E+01 8.722E+01
960418907 -3.234E+01 8.720E+01 -7.738E-03 -1.384E+00 -7.738E-03 -1.384E+00 -3.234E+01 8.720E+01
1009173531 -3.177E+01 8.716E+01 -8.223E-03 -1.478E+00 -8.223E-03 -1.478E+00 -3.177E+01 8.716E+01
1060403130 -3.121E+01 8.711E+01 -8.749E-03 -1.576E+00 -8.749E-03 -1.576E+00 -3.121E+01 8.711E+01
1114233345 -3.067E+01 8.706E+01 -9.321E-03 -1.678E+00 -9.321E-03 -1.678E+00 -3.067E+01 8.706E+01
1170796192 -3.014E+01 8.700E+01 -9.944E-03 -1.784E+00 -9.944E-03 -1.784E+00 -3.014E+01 8.700E+01
1230230390 -2.961E+01 8.693E+01 -1.062E-02 -1.894E+00 -1.062E-02 -1.894E+00 -2.961E+01 8.693E+01
1292681701 -2.910E+01 8.686E+01 -1.136E-02 -2.009E+00 -1.136E-02 -2.009E+00 -2.910E+01 8.686E+01
1358303285 -2.860E+01 8.678E+01 -1.216E-02 -2.129E+00 -1.216E-02 -2.129E+00 -2.860E+01 8.678E+01
1427256078 -2.811E+01 8.669E+01 -1.304E-02 -2.253E+00 -1.304E-02 -2.253E+00 -2.811E+01 8.669E+01
1499709184 -2.762E+01 8.659E+01 -1.399E-02 -2.384E+00 -1.399E-02 -2.384E+00 -2.762E+01 8.659E+01
1575840293 -2.714E+01 8.649E+01 -1.504E-02 -2.520E+00 -1.504E-02 -2.520E+00 -2.714E+01 8.649E+01
1655836116 -2.666E+01 8.637E+01 -1.618E-02 -2.662E+00 -1.618E-02 -2.662E+00 -2.666E+01 8.637E+01
1739892840 -2.619E+01 8.625E+01 -1.742E-02 -2.811E+00 -1.742E-02 -2.811E+00 -2.619E+01 8.625E+01
1828216612 -2.572E+01 8.613E+01 -1.879E-02 -2.967E+00 -1.879E-02 -2.967E+00 -2.572E+01 8.613E+01
1921024045 -2.526E+01 8.599E+01 -2.028E-02 -3.130E+00 -2.028E-02 -3.130E+00 -2.526E+01 8.599E+01
2018542747 -2.480E+01 8.584E+01 -2.191E-02 -3.300E+00 -2.191E-02 -3.300E+00 -2.480E+01 8.584E+01
2121011879 -2.434E+01 8.569E+01 -2.370E-02 -3.479E+00 -2.370E-02 -3.479E+00 -2.434E+01 8.569E+01
2228682746 -2.388E+01 8.552E+01 -2.566E-02 -3.666E+00 -2.566E-02 -3.666E+00 -2.388E+01 8.552E+01
2341819407 -2.343E+01 8.535E+01 -2.780E-02 -3.861E+00 -2.780E-02 -3.861E+00 -2.343E+01 8.535E+01
2460699329 -2.298E+01 8.517E+01 -3.016E-02 -4.067E+00 -3.016E-02 -4.067E+00 -2.298E+01 8.517E+01
2585614060 -2.254E+01 8.497E+01 -3.274E-02 -4.282E+00 -3.274E-02 -4.282E+00 -2.254E+01 8.497E+01
2716869953 -2.209E+01 8.477E+01 -3.558E-02 -4.507E+00 -3.558E-02 -4.507E+00 -2.209E+01 8.477E+01
2854788908 -2.165E+01 8.455E+01 -3.869E-02 -4.743E+00 -3.869E-02 -4.743E+00 -2.165E+01 8.455E+01
2999709170 -2.121E+01 8.432E+01 -4.210E-02 -4.990E+00 -4.210E-02 -4.990E+00 -2.121E+01 8.432E+01
3151986151 -2.077E+01 8.408E+01 -4.585E-02 -5.250E+00 -4.585E-02 -5.250E+00 -2.077E+01 8.408E+01
3311993308 -2.033E+01 8.383E+01 -4.997E-02 -5.522E+00 -4.997E-02 -5.522E+00 -2.033E+01 8.383E+01
3480123055 -1.990E+01 8.356E+01 -5.450E-02 -5.807E+00 -5.450E-02 -5.807E+00 -1.990E+01 8.356E+01
3656787726 -1.946E+01 8.327E+01 -5.947E-02 -6.106E+00 -5.947E-02 -6.106E+00 -1.946E+01 8.327E+01
3842420588 -1.903E+01 8.298E+01 -6.494E-02 -6.420E+00 -6.494E-02 -6.420E+00 -1.903E+01 8.298E+01
4037476900 -1.860E+01 8.266E+01 -7.094E-02 -6.748E+00 -7.094E-02 -6.748E+00 -1.860E+01 8.266E+01
4242435034 -1.817E+01 8.233E+01 -7.755E-02 -7.093E+00 -7.755E-02 -7.093E+00 -1.817E+01 8.233E+01
4457797646 -1.774E+01 8.199E+01 -8.480E-02 -7.454E+00 -8.480E-02 -7.454E+00 -1.774E+01 8.199E+01
4684092907 -1.731E+01 8.162E+01 -9.278E-02 -7.833E+00 -9.278E-02 -7.833E+00 -1.731E+01 8.162E+01
4921875801 -1.688E+01 8.124E+01 -1.016E-01 -8.230E+00 -1.016E-01 -8.230E+00 -1.688E+01 8.124E+01
5171729486 -1.646E+01 8.084E+01 -1.112E-01 -8.646E+00 -1.112E-01 -8.646E+00 -1.646E+01 8.084E+01
5434266722 -1.604E+01 8.041E+01 -1.218E-01 -9.082E+00 -1.218E-01 -9.082E+00 -1.604E+01 8.041E+01
5710131376 -1.561E+01 7.997E+01 -1.334E-01 -9.538E+00 -1.334E-01 -9.538E+00 -1.561E+01 7.997E+01
6000000000 -1.519E+01 7.950E+01 -1.463E-01 -1.002E+01 -1.463E-01 -1.002E+01 -1.519E+01 7.950E+01
